Circuit: * Z:\Desktop\github\DasBlinkinput\LTSpice\DasBlinkinput.asc

Instance "m:u3:14": Length shorter than recommended for a level 1 MOSFET.
Instance "m:u3:12": Length shorter than recommended for a level 1 MOSFET.
Direct Newton iteration failed to find .op point.  (Use ".option noopiter" to skip.)
Starting Gmin stepping
Increasing initial diagonal Gmin to 100
Increasing initial diagonal Gmin to 1000
Gmin = 1000
Gmin = 107.374
Gmin = 11.5292
Gmin = 1.23794
Gmin = 0.132923
Gmin = 0.0142725
Gmin = 0.0015325
Gmin = 0.00016455
Gmin = 1.76685e-005
Gmin = 1.89714e-006
Gmin = 2.03704e-007
Gmin = 2.18725e-008
Gmin = 2.34854e-009
Gmin = 2.52173e-010
Gmin = 2.70769e-011
Gmin = 2.90735e-012
Gmin = 3.12175e-013
Gmin = 0
Gmin stepping succeeded in finding the operating point.

Semiconductor Device Operating Points:
                        --- Diodes ---
Name:    d:u3:99     d:u3:98     d:u3:21     d:u3:20     d:u2:18
Model:   u3:desd     u3:desd     u3:dn1      u3:dn1     u2:dbiasc
Id:     -1.00e-12   -2.00e-12    4.23e-04    4.23e-04   -8.00e-07
Vd:     -1.00e+00   -2.00e+00    5.14e-01    5.14e-01   -3.90e-01
Req:     1.00e+12    1.00e+12    6.11e+01    6.11e+01    1.75e-05
CAP:     0.00e+00    0.00e+00    0.00e+00    0.00e+00    0.00e+00

Name:    d:u2:19     d:u2:9      d:u2:16     d:u2:17     d:u2:15
Model:   u2:desd     u2:desd     u2:desd     u2:desd     u2:desd
Id:     -2.00e-09   -1.00e-09   -1.61e-09   -1.39e-09   -3.00e-09
Vd:     -2.00e+00   -1.00e+00   -1.61e+00   -1.39e+00   -3.00e+00
Req:     1.00e-09    1.00e-09    1.00e-09    1.00e-09    1.00e-09
CAP:     0.00e+00    0.00e+00    0.00e+00    0.00e+00    0.00e+00

Name:    d:u2:14     d:u2:11     d:u2:8      d:u2:4      d:u2:7
Model:   u2:desd    u2:dburn    u2:dbiasf   u2:dbiasf   u2:dbiasr
Id:     -3.38e-12    3.56e-03    3.31e-07    3.14e-07    1.20e-09
Vd:     -3.38e-03    3.00e+00    2.00e+00    1.61e+00    1.00e+00
Req:     1.00e-09    1.00e-02    3.33e-06    3.33e-06    1.00e-05
CAP:     0.00e+00    0.00e+00    0.00e+00    0.00e+00    0.00e+00

Name:    d:u2:2      d:u2:1      d:u2:5
Model:  u2:dbiasr   u2:dvgain    u2:dlat
Id:      1.17e-06    3.55e-06   -1.00e-04
Vd:      1.39e+00    3.73e-01   -1.00e+00
Req:     1.00e-05    1.00e-05    1.00e-04
CAP:     0.00e+00    0.00e+00    0.00e+00

                        --- VDMOSFET Transistors ---
Name:        m:u2:4      m:u2:3
Model:        u2:pi       u2:ni
Id:         -3.00e-04    3.01e-12
Vgs:        -2.55e+00   -2.15e-01
Vds:        -3.38e-03    3.00e+00
Vth:        -6.00e-01    6.00e-01
Gm:          1.54e-04    0.00e+00
Gds:         8.86e-02    0.00e+00
Cgs:         0.00e+00    0.00e+00
Cgd:         0.00e+00    0.00e+00
Cbody:       0.00e+00    0.00e+00

                        --- MOSFET Transistors ---
Name:        m:u3:14     m:u3:12
Model:       u3:nmi      u3:nmi
Id:          1.00e-05    1.00e-05
Vgs:         2.00e-01    2.00e-01
Vds:         3.50e+00    3.50e+00
Vbs:         0.00e+00    0.00e+00
Vth:         0.00e+00    0.00e+00
Vdsat:       2.00e-01    2.00e-01
Gm:          1.00e-04    1.00e-04
Gds:         0.00e+00    0.00e+00
Gmb:         0.00e+00    0.00e+00
Cbd:         0.00e+00    0.00e+00
Cbs:         0.00e+00    0.00e+00
Cgsov:       0.00e+00    0.00e+00
Cgdov:       0.00e+00    0.00e+00
Cgbov:       0.00e+00    0.00e+00
Cgs:         0.00e+00    0.00e+00
Cgd:         0.00e+00    0.00e+00
Cgb:         0.00e+00    0.00e+00



Date: Fri Jan 27 14:32:50 2017
Total elapsed time: 0.071 seconds.

tnom = 27
temp = 27
method = trap
totiter = 664
traniter = 0
tranpoints = 0
accept = 0
rejected = 0
matrix size = 58
fillins = 38
solver = Normal
Thread vector: 25.7/11.7[2] 0.0/0.0[0] 6.8/5.0[2] 0.5/2.3[1]  2592/500
Matrix Compiler1: 3.60 KB object code size
Matrix Compiler2: 4.90 KB object code size  0.8/0.9/[0.5]


